
**** 09/17/24 22:44:08 **** PSpice 22.1.0 (6 October 2022) **** ID# 0 ********

 ** Profile: "SCHEMATIC1-Task3"  [ C:\Users\Asad Ur Rehman\Desktop\DC_DC_Converters\Task_3\Task3-PSpiceFiles\SCHEMATIC1\Task3.sim ] 


 ****     CIRCUIT DESCRIPTION


******************************************************************************




** Creating circuit file "Task3.cir" 
** WARNING: THIS AUTOMATICALLY GENERATED FILE MAY BE OVERWRITTEN BY SUBSEQUENT SIMULATIONS

*Libraries: 
* Profile Libraries :
* Local Libraries :
* From [PSPICE NETLIST] section of C:\Users\Asad Ur Rehman\AppData\Roaming\SPB_16.6\cdssetup\OrCAD_PSpice\22.1.0\PSpice.ini file:
.lib "C:\Users\Asad Ur Rehman\Desktop\ELEC4170_Fall_2024.lib" 
.lib "nom.lib" 

*Analysis directives: 
.TRAN  0 40m 0 1e-6 
.OPTIONS ADVCONV
.PROBE64 V(alias(*)) I(alias(*)) W(alias(*)) D(alias(*)) NOISE(alias(*)) 
.INC "..\SCHEMATIC1.net" 



**** INCLUDING SCHEMATIC1.net ****
* source TASK3
X_U6         N05031 N04883 ADIODE 
V_V4         N05487 0  AC 0
+SIN 0 1 60 0 0 0
V_V1         N04883 0 220Vdc
X_U9         N05487 N05491 N04991 PWM PARAMS:  VPOS=15 VNEG=-15
X_U1         N04883 N05043 N04991 0 AIGBT 
V_V5         N05471 0  AC 0
+SIN 0 -1 60 0 0 0
X_U3         N04883 N05031 N04967 0 AIGBT 
X_U4         N05031 0 0 N04967 AIGBT 
X_U7         0 N05031 ADIODE 
X_U5         N05043 N04883 ADIODE 
R_R1         N05119 N05043  0.5 TC=0,0 
X_U2         N05043 0 0 N04991 AIGBT 
X_U8         0 N05043 ADIODE 
X_U11         N05491 TRIWAV PARAMS:  DELAY=0 DT=1US PERIOD=1MS LEVEL=1V
X_U10         N05471 N05491 N04967 PWM PARAMS:  VPOS=15 VNEG=-15
L_L1         N05119 N05031  10mH  

**** RESUMING Task3.cir ****
.END

**** 09/17/24 22:44:08 **** PSpice 22.1.0 (6 October 2022) **** ID# 0 ********

 ** Profile: "SCHEMATIC1-Task3"  [ C:\Users\Asad Ur Rehman\Desktop\DC_DC_Converters\Task_3\Task3-PSpiceFiles\SCHEMATIC1\Task3.sim ] 


 ****     Diode MODEL PARAMETERS


******************************************************************************




               X_U6.diode      X_U7.diode      X_U5.diode      X_U8.diode      
          IS   10.000000E-15   10.000000E-15   10.000000E-15   10.000000E-15 
           N    1.000000E-03    1.000000E-03    1.000000E-03    1.000000E-03 
          RS    1.000000E-03    1.000000E-03    1.000000E-03    1.000000E-03 
         CJO  100.000000E-15  100.000000E-15  100.000000E-15  100.000000E-15 


**** 09/17/24 22:44:08 **** PSpice 22.1.0 (6 October 2022) **** ID# 0 ********

 ** Profile: "SCHEMATIC1-Task3"  [ C:\Users\Asad Ur Rehman\Desktop\DC_DC_Converters\Task_3\Task3-PSpiceFiles\SCHEMATIC1\Task3.sim ] 


 ****     Voltage Controlled Switch MODEL PARAMETERS


******************************************************************************




               X_U1.igbt       X_U3.igbt       X_U4.igbt       X_U2.igbt       
         RON    1.000000E-03    1.000000E-03    1.000000E-03    1.000000E-03 
        ROFF  100.000000E+03  100.000000E+03  100.000000E+03  100.000000E+03 
         VON     .1              .1              .1              .1          
        VOFF    0               0               0               0            


WARNING(ORPSIM-15452): Pulse Period < (Rise Time + Fall Time + Pulse Width) for X_U11.VRAMP.

WARNING(ORPSIM-15452): Pulse Period < (Rise Time + Fall Time + Pulse Width) for X_U11.VRAMP.

**** 09/17/24 22:44:08 **** PSpice 22.1.0 (6 October 2022) **** ID# 0 ********

 ** Profile: "SCHEMATIC1-Task3"  [ C:\Users\Asad Ur Rehman\Desktop\DC_DC_Converters\Task_3\Task3-PSpiceFiles\SCHEMATIC1\Task3.sim ] 


 ****     INITIAL TRANSIENT SOLUTION       TEMPERATURE =   27.000 DEG C


******************************************************************************



 NODE   VOLTAGE     NODE   VOLTAGE     NODE   VOLTAGE     NODE   VOLTAGE


(N04883)  220.0000 (N04967)   15.0000 (N04991)   15.0000 (N05031)  220.0000     

(N05043)  220.0000 (N05119)  220.0000 (N05471)    0.0000 (N05487)    0.0000     

(N05491)   -1.0000 (X_U9.200)   15.0000                  (X_U9.300)    1.0000   

(X_U10.200)   15.0000                 (X_U10.300)    1.0000                 




    VOLTAGE SOURCE CURRENTS
    NAME         CURRENT

    V_V4         0.000E+00
    V_V1        -4.400E-03
    V_V5         0.000E+00
    X_U11.VRAMP   1.000E-06

    TOTAL POWER DISSIPATION   9.68E-01  WATTS



          JOB CONCLUDED

**** 09/17/24 22:44:08 **** PSpice 22.1.0 (6 October 2022) **** ID# 0 ********

 ** Profile: "SCHEMATIC1-Task3"  [ C:\Users\Asad Ur Rehman\Desktop\DC_DC_Converters\Task_3\Task3-PSpiceFiles\SCHEMATIC1\Task3.sim ] 


 ****     JOB STATISTICS SUMMARY


******************************************************************************



  License check-out time            =        9.77
  Total job time (using Solver 1)   =        8.52
