
**** 09/06/24 18:37:27 ****** PSpice Lite (October 2012) ****** ID# 10813 ****

 ** Profile: "SCHEMATIC1-bias"  [ C:\Users\Asad Ur Rehman\Desktop\OrCAD_Tasks\Rectifiers\Task6_3 Phase Full Wave R Load\task6-pspicef


 ****     CIRCUIT DESCRIPTION


******************************************************************************




** Creating circuit file "bias.cir" 
** WARNING: THIS AUTOMATICALLY GENERATED FILE MAY BE OVERWRITTEN BY SUBSEQUENT SIMULATIONS

*Libraries: 
* Profile Libraries :
* Local Libraries :
* From [PSPICE NETLIST] section of C:\Users\Asad Ur Rehman\AppData\Roaming\SPB_16.6\cdssetup\OrCAD_PSpice/16.6.0/PSpice.ini file:
.lib "nomd.lib" 

*Analysis directives: 
.TRAN  0 0.2 0.1 0.0001 
.OPTIONS ADVCONV
.PROBE64 V(alias(*)) I(alias(*)) W(alias(*)) D(alias(*)) NOISE(alias(*)) 
.INC "..\SCHEMATIC1.net" 



**** INCLUDING SCHEMATIC1.net ****
* source TASK6
V_V1         0 N15258  
+SIN 0 220 60 0 0 0
V_V3         0 N15200  
+SIN 0 220 60 0 0 -120
V_V2         0 N15196  
+SIN 0 220 60 0 0 120
R_R1         N15168 N15234  10 TC=0,0 
D_D10         N15168 N15258 D1N3940 
D_D11         N15168 N15196 D1N3940 
D_D12         N15168 N15200 D1N3940 
D_D13         N15200 N15234 D1N3940 
D_D14         N15258 N15234 D1N3940 
D_D15         N15196 N15234 D1N3940 

**** RESUMING bias.cir ****
.END

**** 09/06/24 18:37:27 ****** PSpice Lite (October 2012) ****** ID# 10813 ****

 ** Profile: "SCHEMATIC1-bias"  [ C:\Users\Asad Ur Rehman\Desktop\OrCAD_Tasks\Rectifiers\Task6_3 Phase Full Wave R Load\task6-pspicef


 ****     Diode MODEL PARAMETERS


******************************************************************************




               D1N3940         
          IS  400.000000E-12 
           N    1.48         
          BV  600            
         IBV  100.000000E-06 
          RS     .105        
          TT  800.000000E-09 
         CJO   19.500000E-12 
          VJ     .4          
           M     .38         
          FC     .9          
          EG    1.36         
         XTI   -8            


**** 09/06/24 18:37:27 ****** PSpice Lite (October 2012) ****** ID# 10813 ****

 ** Profile: "SCHEMATIC1-bias"  [ C:\Users\Asad Ur Rehman\Desktop\OrCAD_Tasks\Rectifiers\Task6_3 Phase Full Wave R Load\task6-pspicef


 ****     INITIAL TRANSIENT SOLUTION       TEMPERATURE =   27.000 DEG C


******************************************************************************



 NODE   VOLTAGE     NODE   VOLTAGE     NODE   VOLTAGE     NODE   VOLTAGE


(N15168) -185.6600 (N15196) -190.5300 (N15200)  190.5300 (N15234)  185.6600     

(N15258)    0.0000 




    VOLTAGE SOURCE CURRENTS
    NAME         CURRENT

    V_V1         9.306E-25
    V_V3         3.713E+01
    V_V2        -3.713E+01

    TOTAL POWER DISSIPATION   1.41E+04  WATTS



          JOB CONCLUDED

**** 09/06/24 18:37:27 ****** PSpice Lite (October 2012) ****** ID# 10813 ****

 ** Profile: "SCHEMATIC1-bias"  [ C:\Users\Asad Ur Rehman\Desktop\OrCAD_Tasks\Rectifiers\Task6_3 Phase Full Wave R Load\task6-pspicef


 ****     JOB STATISTICS SUMMARY


******************************************************************************



  Total job time (using Solver 1)   =         .03
