
**** 09/06/24 15:01:46 ****** PSpice Lite (October 2012) ****** ID# 10813 ****

 ** Profile: "SCHEMATIC1-Task7"  [ C:\Users\Asad Ur Rehman\Desktop\OrCAD_Tasks\Task7\Task7-PSpiceFiles\SCHEMATIC1\Task7.sim ] 


 ****     CIRCUIT DESCRIPTION


******************************************************************************




** Creating circuit file "Task7.cir" 
** WARNING: THIS AUTOMATICALLY GENERATED FILE MAY BE OVERWRITTEN BY SUBSEQUENT SIMULATIONS

*Libraries: 
* Profile Libraries :
* Local Libraries :
* From [PSPICE NETLIST] section of C:\Users\Asad Ur Rehman\AppData\Roaming\SPB_16.6\cdssetup\OrCAD_PSpice/16.6.0/PSpice.ini file:
.lib "nomd.lib" 

*Analysis directives: 
.TRAN  0 0.2 0.1 0.0001 
.OPTIONS ADVCONV
.PROBE64 V(alias(*)) I(alias(*)) W(alias(*)) D(alias(*)) NOISE(alias(*)) 
.INC "..\SCHEMATIC1.net" 



**** INCLUDING SCHEMATIC1.net ****
* source TASK7
D_D10         N17490 N17534 D1N3940 
L_L1         N17830 N17490  7mH  
D_D13         N17510 N17514 D1N3940 
R_R1         N17830 N17514  0.5 TC=0,0 
V_V1         0 N17534  
+SIN 0 220 60 0 0 0
C_C1         N17490 N17514  1uF  TC=0,0 
D_D14         N17534 N17514 D1N3940 
V_V2         0 N17506  
+SIN 0 220 60 0 0 120
D_D12         N17490 N17510 D1N3940 
V_V3         0 N17510  
+SIN 0 220 60 0 0 -120
D_D11         N17490 N17506 D1N3940 
D_D15         N17506 N17514 D1N3940 

**** RESUMING Task7.cir ****
.END

**** 09/06/24 15:01:46 ****** PSpice Lite (October 2012) ****** ID# 10813 ****

 ** Profile: "SCHEMATIC1-Task7"  [ C:\Users\Asad Ur Rehman\Desktop\OrCAD_Tasks\Task7\Task7-PSpiceFiles\SCHEMATIC1\Task7.sim ] 


 ****     Diode MODEL PARAMETERS


******************************************************************************




               D1N3940         
          IS  400.000000E-12 
           N    1.48         
          BV  600            
         IBV  100.000000E-06 
          RS     .105        
          TT  800.000000E-09 
         CJO   19.500000E-12 
          VJ     .4          
           M     .38         
          FC     .9          
          EG    1.36         
         XTI   -8            


**** 09/06/24 15:01:46 ****** PSpice Lite (October 2012) ****** ID# 10813 ****

 ** Profile: "SCHEMATIC1-Task7"  [ C:\Users\Asad Ur Rehman\Desktop\OrCAD_Tasks\Task7\Task7-PSpiceFiles\SCHEMATIC1\Task7.sim ] 


 ****     INITIAL TRANSIENT SOLUTION       TEMPERATURE =   27.000 DEG C


******************************************************************************



 NODE   VOLTAGE     NODE   VOLTAGE     NODE   VOLTAGE     NODE   VOLTAGE


(N17490) -133.4200 (N17506) -190.5300 (N17510)  190.5300 (N17514)  133.4200     

(N17534)    0.0000 (N17830) -133.4200 




    VOLTAGE SOURCE CURRENTS
    NAME         CURRENT

    V_V1         1.789E-23
    V_V2        -5.337E+02
    V_V3         5.337E+02

    TOTAL POWER DISSIPATION   2.03E+05  WATTS



          JOB CONCLUDED

**** 09/06/24 15:01:46 ****** PSpice Lite (October 2012) ****** ID# 10813 ****

 ** Profile: "SCHEMATIC1-Task7"  [ C:\Users\Asad Ur Rehman\Desktop\OrCAD_Tasks\Task7\Task7-PSpiceFiles\SCHEMATIC1\Task7.sim ] 


 ****     JOB STATISTICS SUMMARY


******************************************************************************



  Total job time (using Solver 1)   =         .05
