
**** 09/26/24 00:12:38 **** PSpice 22.1.0 (6 October 2022) **** ID# 0 ********

 ** Profile: "SCHEMATIC1-Task_2"  [ C:\Users\Asad Ur Rehman\Desktop\Mid_Term\Task_2\Task_2-PSpiceFiles\SCHEMATIC1\Task_2.sim ] 


 ****     CIRCUIT DESCRIPTION


******************************************************************************




** Creating circuit file "Task_2.cir" 
** WARNING: THIS AUTOMATICALLY GENERATED FILE MAY BE OVERWRITTEN BY SUBSEQUENT SIMULATIONS

*Libraries: 
* Profile Libraries :
* Local Libraries :
* From [PSPICE NETLIST] section of C:\Users\Asad Ur Rehman\AppData\Roaming\SPB_16.6\cdssetup\OrCAD_PSpice\22.1.0\PSpice.ini file:
.lib "C:\Cadence\SPB_22.1\tools\pspice\library\ELEC4170_Fall_2024.lib" 
.lib "nom.lib" 

*Analysis directives: 
.TRAN  0 50ms 0 1e-6 
.OPTIONS ADVCONV
.PROBE64 V(alias(*)) I(alias(*)) W(alias(*)) D(alias(*)) NOISE(alias(*)) 
.INC "..\SCHEMATIC1.net" 



**** INCLUDING SCHEMATIC1.net ****
* source TASK_2
V_V4         N14281 0  
+PULSE 0 20 5m 1u 1u 100u 50m
V_V6         N14623 0  
+PULSE 0 20 38.34m 1u 1u 100u 50m
V_V1         N14269 0  AC 0
+SIN 0 450 20 0 0 0
X_U2         N14421 N14273 N14447 N14273 ASCR 
X_U3         N14607 N14273 N14623 N14273 ASCR 
V_V2         N14421 0  AC 0
+SIN 0 450 20 0 0 120
V_V3         N14607 0  AC 0
+SIN 0 450 20 0 0 240
R_R1         N14537 N15766  5 TC=0,0 
X_U1         N14269 N14273 N14281 N14273 ASCR 
V_V5         N14447 0  
+PULSE 0 20 21.67m 1u 1u 100u 50m
C_C1         0 N14537  500uF  TC=0,0 
V_V7         N14273 N15766 250V

**** RESUMING Task_2.cir ****
.END

**** 09/26/24 00:12:38 **** PSpice 22.1.0 (6 October 2022) **** ID# 0 ********

 ** Profile: "SCHEMATIC1-Task_2"  [ C:\Users\Asad Ur Rehman\Desktop\Mid_Term\Task_2\Task_2-PSpiceFiles\SCHEMATIC1\Task_2.sim ] 


 ****     Voltage Controlled Switch MODEL PARAMETERS


******************************************************************************




               X_U2.SMOD       X_U3.SMOD       X_U1.SMOD       
         RON     .01             .01             .01         
        ROFF    1.000000E+06    1.000000E+06    1.000000E+06 
         VON     .1              .1              .1          
        VOFF    0               0               0            


**** 09/26/24 00:12:38 **** PSpice 22.1.0 (6 October 2022) **** ID# 0 ********

 ** Profile: "SCHEMATIC1-Task_2"  [ C:\Users\Asad Ur Rehman\Desktop\Mid_Term\Task_2\Task_2-PSpiceFiles\SCHEMATIC1\Task_2.sim ] 


 ****     INITIAL TRANSIENT SOLUTION       TEMPERATURE =   27.000 DEG C


******************************************************************************



 NODE   VOLTAGE     NODE   VOLTAGE     NODE   VOLTAGE     NODE   VOLTAGE


(N14269)    0.0000 (N14273) 608.1E-06 (N14281)    0.0000 (N14421)  389.7100     

(N14447)    0.0000 (N14537) -250.0000 (N14607) -389.7100 (N14623)    0.0000     

(N15766) -250.0000 (X_U1.4) 608.1E-06 (X_U1.5) 608.1E-06 (X_U1.6)-6.689E-09     

(X_U2.4) 608.1E-06 (X_U2.5) 608.1E-06 (X_U2.6)     .0047 (X_U3.4) 608.1E-06     

(X_U3.5) 608.1E-06 (X_U3.6)    -.0043 




    VOLTAGE SOURCE CURRENTS
    NAME         CURRENT

    V_V4         1.216E-05
    V_V6         1.216E-05
    V_V1         6.081E-10
    V_V2        -4.262E-04
    V_V3         3.897E-04
    V_V5         1.216E-05
    V_V7        -6.280E-16
    X_U2.VX     -1.216E-05
    X_U2.VY      4.262E-04
    X_U3.VX     -1.216E-05
    X_U3.VY     -3.897E-04
    X_U1.VX     -1.216E-05
    X_U1.VY     -6.081E-10

    TOTAL POWER DISSIPATION   3.18E-01  WATTS



          JOB CONCLUDED

**** 09/26/24 00:12:38 **** PSpice 22.1.0 (6 October 2022) **** ID# 0 ********

 ** Profile: "SCHEMATIC1-Task_2"  [ C:\Users\Asad Ur Rehman\Desktop\Mid_Term\Task_2\Task_2-PSpiceFiles\SCHEMATIC1\Task_2.sim ] 


 ****     JOB STATISTICS SUMMARY


******************************************************************************



  License check-out time            =       39.52
  Total job time (using Solver 1)   =        2.41
