
**** 09/17/24 23:34:54 **** PSpice 22.1.0 (6 October 2022) **** ID# 0 ********

 ** Profile: "SCHEMATIC1-TAsk5"  [ C:\Users\Asad Ur Rehman\Desktop\DC_DC_Converters\Task_5\Task5-PSpiceFiles\SCHEMATIC1\TAsk5.sim ] 


 ****     CIRCUIT DESCRIPTION


******************************************************************************




** Creating circuit file "TAsk5.cir" 
** WARNING: THIS AUTOMATICALLY GENERATED FILE MAY BE OVERWRITTEN BY SUBSEQUENT SIMULATIONS

*Libraries: 
* Profile Libraries :
* Local Libraries :
* From [PSPICE NETLIST] section of C:\Users\Asad Ur Rehman\AppData\Roaming\SPB_16.6\cdssetup\OrCAD_PSpice\22.1.0\PSpice.ini file:
.lib "C:\Users\Asad Ur Rehman\Desktop\ELEC4170_Fall_2024.lib" 
.lib "nom.lib" 

*Analysis directives: 
.TRAN  0 40m 0 1e-6 
.OPTIONS ADVCONV
.PROBE64 V(alias(*)) I(alias(*)) W(alias(*)) D(alias(*)) NOISE(alias(*)) 
.INC "..\SCHEMATIC1.net" 



**** INCLUDING SCHEMATIC1.net ****
* source TASK5
V_V6         N11153 0  AC 0
+SIN 0 1 60 0 0 240
X_U14         N10411 0 0 N10311 AIGBT 
X_U3         N10207 N10439 N10355 0 AIGBT 
X_U5         N10455 N10207 ADIODE 
V_V1         N10207 0 220Vdc
X_U10         N11039 N11059 N10355 PWM PARAMS:  VPOS=15 VNEG=-15
X_U16         N11153 N11059 N10311 PWM PARAMS:  VPOS=15 VNEG=-15
X_U7         0 N10439 ADIODE 
R_R1         N104831 N10455  0.5 TC=0,0 
X_U11         N11059 TRIWAV PARAMS:  DELAY=0 DT=1US PERIOD=1MS LEVEL=1V
X_U4         N10439 0 0 N10355 AIGBT 
X_U13         N10411 N10207 ADIODE 
X_U2         N10455 0 0 N10387 AIGBT 
X_U9         N11055 N11059 N10387 PWM PARAMS:  VPOS=15 VNEG=-15
X_U12         N10207 N10411 N10311 0 AIGBT 
R_R2         N105391 N10439  0.5 TC=0,0 
R_R3         N105911 N10411  0.5 TC=0,0 
V_V5         N11039 0  AC 0
+SIN 0 1 60 0 0 120
X_U1         N10207 N10455 N10387 0 AIGBT 
V_V4         N11055 0  AC 0
+SIN 0 1 60 0 0 0
X_U15         0 N10411 ADIODE 
X_U8         0 N10455 ADIODE 
X_U6         N10439 N10207 ADIODE 
L_L1         N104831 N10499  10mH  
L_L2         N105391 N10499  10mH  
L_L3         N105911 N10499  10mH  

**** RESUMING TAsk5.cir ****
.END

**** 09/17/24 23:34:54 **** PSpice 22.1.0 (6 October 2022) **** ID# 0 ********

 ** Profile: "SCHEMATIC1-TAsk5"  [ C:\Users\Asad Ur Rehman\Desktop\DC_DC_Converters\Task_5\Task5-PSpiceFiles\SCHEMATIC1\TAsk5.sim ] 


 ****     Diode MODEL PARAMETERS


******************************************************************************




               X_U5.diode      X_U7.diode      X_U13.diode     X_U15.diode     
          IS   10.000000E-15   10.000000E-15   10.000000E-15   10.000000E-15 
           N    1.000000E-03    1.000000E-03    1.000000E-03    1.000000E-03 
          RS    1.000000E-03    1.000000E-03    1.000000E-03    1.000000E-03 
         CJO  100.000000E-15  100.000000E-15  100.000000E-15  100.000000E-15 


               X_U8.diode      X_U6.diode      
          IS   10.000000E-15   10.000000E-15 
           N    1.000000E-03    1.000000E-03 
          RS    1.000000E-03    1.000000E-03 
         CJO  100.000000E-15  100.000000E-15 


**** 09/17/24 23:34:54 **** PSpice 22.1.0 (6 October 2022) **** ID# 0 ********

 ** Profile: "SCHEMATIC1-TAsk5"  [ C:\Users\Asad Ur Rehman\Desktop\DC_DC_Converters\Task_5\Task5-PSpiceFiles\SCHEMATIC1\TAsk5.sim ] 


 ****     Voltage Controlled Switch MODEL PARAMETERS


******************************************************************************




               X_U14.igbt      X_U3.igbt       X_U4.igbt       X_U2.igbt       
         RON    1.000000E-03    1.000000E-03    1.000000E-03    1.000000E-03 
        ROFF  100.000000E+03  100.000000E+03  100.000000E+03  100.000000E+03 
         VON     .1              .1              .1              .1          
        VOFF    0               0               0               0            


               X_U12.igbt      X_U1.igbt       
         RON    1.000000E-03    1.000000E-03 
        ROFF  100.000000E+03  100.000000E+03 
         VON     .1              .1          
        VOFF    0               0            


WARNING(ORPSIM-15452): Pulse Period < (Rise Time + Fall Time + Pulse Width) for X_U11.VRAMP.

WARNING(ORPSIM-15452): Pulse Period < (Rise Time + Fall Time + Pulse Width) for X_U11.VRAMP.

**** 09/17/24 23:34:54 **** PSpice 22.1.0 (6 October 2022) **** ID# 0 ********

 ** Profile: "SCHEMATIC1-TAsk5"  [ C:\Users\Asad Ur Rehman\Desktop\DC_DC_Converters\Task_5\Task5-PSpiceFiles\SCHEMATIC1\TAsk5.sim ] 


 ****     INITIAL TRANSIENT SOLUTION       TEMPERATURE =   27.000 DEG C


******************************************************************************



 NODE   VOLTAGE     NODE   VOLTAGE     NODE   VOLTAGE     NODE   VOLTAGE


(N10207)  220.0000 (N10311)   15.0000 (N10355)   15.0000 (N10387)   15.0000     

(N10411)  220.0000 (N10439)  220.0000 (N10455)  220.0000 (N10499)  220.0000     

(N11039)     .8660 (N11055)    0.0000 (N11059)   -1.0000 (N11153)    -.8660     

(N104831)  220.0000                   (N105391)  220.0000                       

(N105911)  220.0000                   (X_U9.200)   15.0000                      

(X_U9.300)    1.0000                  (X_U10.200)   15.0000                     

(X_U10.300)    1.0000                 (X_U16.200)   15.0000                     

(X_U16.300)    1.0000                 




    VOLTAGE SOURCE CURRENTS
    NAME         CURRENT

    V_V6         8.660E-13
    V_V1        -6.600E-03
    V_V5        -8.660E-13
    V_V4         0.000E+00
    X_U11.VRAMP   1.000E-06

    TOTAL POWER DISSIPATION   1.45E+00  WATTS

Reducing minimum delta to make the circuit converge.


          JOB CONCLUDED

**** 09/17/24 23:34:54 **** PSpice 22.1.0 (6 October 2022) **** ID# 0 ********

 ** Profile: "SCHEMATIC1-TAsk5"  [ C:\Users\Asad Ur Rehman\Desktop\DC_DC_Converters\Task_5\Task5-PSpiceFiles\SCHEMATIC1\TAsk5.sim ] 


 ****     JOB STATISTICS SUMMARY


******************************************************************************



  License check-out time            =       14.49
  Total job time (using Solver 1)   =        3.55
