
**** 09/06/24 12:34:46 ****** PSpice Lite (October 2012) ****** ID# 10813 ****

 ** Profile: "SCHEMATIC1-Task5"  [ C:\Users\Asad Ur Rehman\Desktop\OrCAD_Tasks\Task5\Task5-PSpiceFiles\SCHEMATIC1\Task5.sim ] 


 ****     CIRCUIT DESCRIPTION


******************************************************************************




** Creating circuit file "Task5.cir" 
** WARNING: THIS AUTOMATICALLY GENERATED FILE MAY BE OVERWRITTEN BY SUBSEQUENT SIMULATIONS

*Libraries: 
* Profile Libraries :
* Local Libraries :
* From [PSPICE NETLIST] section of C:\Users\Asad Ur Rehman\AppData\Roaming\SPB_16.6\cdssetup\OrCAD_PSpice/16.6.0/PSpice.ini file:
.lib "nomd.lib" 

*Analysis directives: 
.TRAN  0 0.2 0.1 0.0001 
.OPTIONS ADVCONV
.PROBE64 V(alias(*)) I(alias(*)) W(alias(*)) D(alias(*)) NOISE(alias(*)) 
.INC "..\SCHEMATIC1.net" 



**** INCLUDING SCHEMATIC1.net ****
* source TASK5
V_V1         0 N00228  
+SIN 0 220 60 0 0 0
V_V2         0 N00224  
+SIN 0 220 60 0 0 120
V_V3         0 N00232  
+SIN 0 220 60 0 0 -120
D_D1         N00228 N00236 D1N3940 
D_D2         N00224 N00236 D1N3940 
D_D3         N00232 N00236 D1N3940 
R_R1         0 N00236  10 TC=0,0 

**** RESUMING Task5.cir ****
.END

**** 09/06/24 12:34:46 ****** PSpice Lite (October 2012) ****** ID# 10813 ****

 ** Profile: "SCHEMATIC1-Task5"  [ C:\Users\Asad Ur Rehman\Desktop\OrCAD_Tasks\Task5\Task5-PSpiceFiles\SCHEMATIC1\Task5.sim ] 


 ****     Diode MODEL PARAMETERS


******************************************************************************




               D1N3940         
          IS  400.000000E-12 
           N    1.48         
          BV  600            
         IBV  100.000000E-06 
          RS     .105        
          TT  800.000000E-09 
         CJO   19.500000E-12 
          VJ     .4          
           M     .38         
          FC     .9          
          EG    1.36         
         XTI   -8            


**** 09/06/24 12:34:46 ****** PSpice Lite (October 2012) ****** ID# 10813 ****

 ** Profile: "SCHEMATIC1-Task5"  [ C:\Users\Asad Ur Rehman\Desktop\OrCAD_Tasks\Task5\Task5-PSpiceFiles\SCHEMATIC1\Task5.sim ] 


 ****     INITIAL TRANSIENT SOLUTION       TEMPERATURE =   27.000 DEG C


******************************************************************************



 NODE   VOLTAGE     NODE   VOLTAGE     NODE   VOLTAGE     NODE   VOLTAGE


(N00224) -190.5300 (N00228)    0.0000 (N00232)  190.5300 (N00236)  187.6200 




    VOLTAGE SOURCE CURRENTS
    NAME         CURRENT

    V_V1        -5.876E-10
    V_V2        -7.781E-10
    V_V3         1.876E+01

    TOTAL POWER DISSIPATION   3.57E+03  WATTS



          JOB CONCLUDED

**** 09/06/24 12:34:46 ****** PSpice Lite (October 2012) ****** ID# 10813 ****

 ** Profile: "SCHEMATIC1-Task5"  [ C:\Users\Asad Ur Rehman\Desktop\OrCAD_Tasks\Task5\Task5-PSpiceFiles\SCHEMATIC1\Task5.sim ] 


 ****     JOB STATISTICS SUMMARY


******************************************************************************



  Total job time (using Solver 1)   =         .14
